Freq.	V(n004)
1.00000000000000e+02	-1.30172146254343e-07,5.17938828397488e-10
1.12201845430196e+02	-1.63877044532581e-07,5.81137110559372e-10
1.25892541179417e+02	-2.06309010172212e-07,6.52046838581028e-10
1.41253754462275e+02	-2.59727710108882e-07,7.31608997327789e-10
1.58489319246111e+02	-3.26977900813096e-07,8.20879415527973e-10
1.77827941003892e+02	-4.11640925379166e-07,9.21042795393710e-10
1.99526231496888e+02	-5.18225438546049e-07,1.03342846536437e-09
2.23872113856834e+02	-6.52407517627480e-07,1.15952807430818e-09
2.51188643150958e+02	-8.21332947995561e-07,1.30101547817174e-09
2.81838293126445e+02	-1.03399778387247e-06,1.45976911127136e-09
3.16227766016838e+02	-1.30172745535614e-06,1.63789718872284e-09
3.54813389233575e+02	-1.63877994328709e-06,1.83776616172227e-09
3.98107170553497e+02	-2.06310515496272e-06,2.06203295709456e-09
4.46683592150963e+02	-2.59730095884031e-06,2.31368170049378e-09
5.01187233627272e+02	-3.26981682006485e-06,2.59606589071853e-09
5.62341325190348e+02	-4.11646918156050e-06,2.91295743470853e-09
6.30957344480193e+02	-5.18234936435832e-06,3.26860469975730e-09
7.07945784384137e+02	-6.52422570725432e-06,3.66780302326672e-09
7.94328234724280e+02	-8.21356805462417e-06,4.11598335259346e-09
8.91250938133744e+02	-1.03403559523846e-05,4.61932859910437e-09
9.99999999999999e+02	-1.30178738199186e-05,5.18493417988952e-09
1.12201845430196e+03	-1.63887491992403e-05,5.82104139499376e-09
1.25892541179417e+03	-2.06325568143115e-05,6.53739384843731e-09
1.41253754462275e+03	-2.59753952450801e-05,7.34580535755246e-09
1.58489319246111e+03	-3.27019491576551e-05,8.26109566707494e-09
1.77827941003892e+03	-4.11706841208396e-05,9.30267083342033e-09
1.99526231496888e+03	-5.18329905922912e-05,1.04972393384129e-08
2.23872113856833e+03	-6.52573082927785e-05,1.18835356740185e-08
2.51188643150957e+03	-8.21595342664982e-05,1.35205998350081e-08
2.81838293126445e+03	-1.03441363414228e-04,1.55023641800439e-08
3.16227766016837e+03	-1.30238649918714e-04,1.79834380160140e-08
3.54813389233575e+03	-1.63982438866637e-04,2.12247832761364e-08
3.98107170553496e+03	-2.06476035224643e-04,2.56747367897059e-08
4.46683592150962e+03	-2.59992399619794e-04,3.21128586748290e-08
5.01187233627271e+03	-3.27397350825478e-04,4.19054672520613e-08
5.62341325190348e+03	-4.12305599909079e-04,5.74597403799819e-08
6.30957344480191e+03	-5.19278659284100e-04,8.30308701626799e-08
7.07945784384136e+03	-6.54076326142660e-04,1.26156979110062e-07
7.94328234724279e+03	-8.23976965345626e-04,2.00210288327845e-07
8.91250938133743e+03	-1.03818654067102e-03,3.28933187468481e-07
9.99999999999997e+03	-1.30836273758597e-03,5.54503877527582e-07
1.12201845430196e+04	-1.64928926969370e-03,9.51878402655080e-07
1.25892541179416e+04	-2.07974756351181e-03,1.65429362723970e-06
1.41253754462275e+04	-2.62364993733490e-03,2.89861721175813e-06
1.58489319246111e+04	-3.31152228300097e-03,5.10599079492455e-06
1.77827941003892e+04	-4.18245828422574e-03,9.02523415690133e-06
1.99526231496887e+04	-5.28671596833458e-03,1.59878562034612e-05
2.23872113856833e+04	-6.68919751614531e-03,2.83615356028711e-05
2.51188643150957e+04	-8.47415405311437e-03,5.03565399576309e-05
2.81838293126444e+04	-1.07516011355077e-02,8.94597736495564e-05
3.16227766016837e+04	-1.36661333607274e-02,1.58984910269141e-04
3.54813389233574e+04	-1.74091039466124e-02,2.82607074683616e-04
3.98107170553496e+04	-2.22354947329286e-02,5.02425705087034e-04
4.46683592150961e+04	-2.84872179543608e-02,8.93297304148410e-04
5.01187233627270e+04	-3.66249401099653e-02,1.58829999306158e-03
5.62341325190347e+04	-4.72704220050565e-02,2.82392192977745e-03
6.30957344480191e+04	-6.12598117813513e-02,5.02004636570095e-03
7.07945784384135e+04	-7.97027427275906e-02,8.92076261788597e-03
7.94328234724278e+04	-1.04026229730776e-01,1.58394377852034e-02
8.91250938133742e+04	-1.35941657457151e-01,2.80749867574767e-02
9.99999999999995e+04	-1.77176266742158e-01,4.95821815510852e-02
1.12201845430196e+05	-2.28603057580205e-01,8.69220706399106e-02
1.25892541179416e+05	-2.88054376601384e-01,1.50169304585527e-01
1.41253754462275e+05	-3.45928227652979e-01,2.52290751920765e-01
1.58489319246111e+05	-3.79369077608210e-01,4.03199024994288e-01
1.77827941003891e+05	-3.52614779901498e-01,5.94690907084118e-01
1.99526231496887e+05	-2.37648557958957e-01,7.86225009148166e-01
2.23872113856833e+05	-4.66123721118002e-02,9.21373932012657e-01
2.51188643150957e+05	1.70672009203399e-01,9.71685724973986e-01
2.81838293126444e+05	3.67626372715243e-01,9.50733804867610e-01
3.16227766016836e+05	5.24758186776825e-01,8.88780716810578e-01
3.54813389233574e+05	6.42795421915745e-01,8.10362649985606e-01
3.98107170553495e+05	7.29694349167662e-01,7.29462378171510e-01
4.46683592150961e+05	7.93688140205106e-01,6.52550815176914e-01
5.01187233627269e+05	8.41239636808621e-01,5.82062269920500e-01
5.62341325190346e+05	8.76980290546014e-01,5.18544801689564e-01
6.30957344480190e+05	9.04141122846226e-01,4.61750857751326e-01
7.07945784384134e+05	9.24978236277443e-01,4.11140667381196e-01
7.94328234724277e+05	9.41087611295804e-01,3.66100850628139e-01
8.91250938133740e+05	9.53617930928857e-01,3.26033401810271e-01
9.99999999999994e+05	9.63410560425798e-01,2.90387938487653e-01
1.12201845430196e+06	9.71091618149008e-01,2.58670028982032e-01
1.25892541179416e+06	9.77133363560042e-01,2.30439987010561e-01
1.41253754462275e+06	9.81895954232498e-01,2.05308291938132e-01
1.58489319246110e+06	9.85656486667474e-01,1.82930182583578e-01
1.77827941003891e+06	9.88629638125736e-01,1.63000414988170e-01
1.99526231496887e+06	9.90982633551829e-01,1.45248518060299e-01
2.23872113856832e+06	9.92846287515088e-01,1.29434615155137e-01
2.51188643150956e+06	9.94323270265054e-01,1.15345780293725e-01
2.81838293126443e+06	9.95494370508255e-01,1.02792867332186e-01
3.16227766016836e+06	9.96423286764878e-01,9.16077470621960e-02
3.54813389233573e+06	9.97160321679976e-01,8.16408933510470e-02
3.98107170553494e+06	9.97745248189867e-01,7.27592679006557e-02
4.46683592150960e+06	9.98209544146029e-01,6.48444613642199e-02
5.01187233627269e+06	9.98578141343343e-01,5.77910555873053e-02
5.62341325190345e+06	9.98870798691406e-01,5.15051775317594e-02
6.30957344480189e+06	9.99103182922140e-01,4.59032201354199e-02
7.07945784384133e+06	9.99287720759867e-01,4.09107091551121e-02
7.94328234724276e+06	9.99434271904923e-01,3.64612981204876e-02
8.91250938133739e+06	9.99550661148182e-01,3.24958760462432e-02
9.99999999999993e+06	9.99643099504217e-01,2.89617746317665e-02
1.12201845430195e+07	9.99716517761708e-01,2.58120634137793e-02
1.25892541179416e+07	9.99774830823685e-01,2.30049228002881e-02
1.41253754462274e+07	9.99821147297768e-01,2.05030861572686e-02
1.58489319246110e+07	9.99857935738707e-01,1.82733431843895e-02
1.77827941003891e+07	9.99887156547831e-01,1.62860977346128e-02
1.99526231496886e+07	9.99910366648887e-01,1.45149740294769e-02
2.23872113856832e+07	9.99928802574798e-01,1.29364659168390e-02
2.51188643150956e+07	9.99943446427830e-01,1.15296244263604e-02
2.81838293126443e+07	9.99955078249694e-01,1.02757794126646e-02
3.16227766016835e+07	9.99964317605476e-01,9.15829154714775e-03
3.54813389233572e+07	9.99971656605413e-01,8.16233133538734e-03
3.98107170553494e+07	9.99977486129030e-01,7.27468220509530e-03
4.46683592150959e+07	9.99982116651896e-01,6.48356503560555e-03
5.01187233627268e+07	9.99985794786549e-01,5.77848178910853e-03
5.62341325190344e+07	9.99988716419884e-01,5.15007616064180e-03
6.30957344480188e+07	9.99991037147609e-01,4.59000939203302e-03
7.07945784384132e+07	9.99992880562045e-01,4.09084959787638e-03
7.94328234724274e+07	9.99994344834943e-01,3.64597313210126e-03
8.91250938133737e+07	9.99995507946211e-01,3.24947668430072e-03
1.00000000000000e+08	9.99996431837045e-01,2.89609893795524e-03
